HEADER
"PSFversion" "1.00"
"simulator" "KSI"
"runtype" "Transient Analysis"
TYPE
"node" FLOAT DOUBLE PROP(
"key" "node"
)
"branch" FLOAT DOUBLE PROP(
"key" "branch"
)
"sweep" FLOAT DOUBLE
SWEEP
"time" "sweep"
TRACE
"group" GROUP 3
"1" "node"
"0" "node"
"2" "node"
VALUE
"time" 0.000000e+00
"group"
0.000000e+00
0.000000e+00
0.000000e+00
"time" 1.000000e-09
"group"
0.000000e+00
0.000000e+00
0.000000e+00
"time" 2.000000e-09
"group"
0.000000e+00
0.000000e+00
0.000000e+00
"time" 3.000000e-09
"group"
0.000000e+00
0.000000e+00
0.000000e+00
"time" 4.000000e-09
"group"
0.000000e+00
0.000000e+00
0.000000e+00
"time" 5.000000e-09
"group"
0.000000e+00
0.000000e+00
0.000000e+00
"time" 6.000000e-09
"group"
0.000000e+00
0.000000e+00
0.000000e+00
"time" 7.000000e-09
"group"
0.000000e+00
0.000000e+00
0.000000e+00
"time" 8.000000e-09
"group"
0.000000e+00
0.000000e+00
0.000000e+00
"time" 9.000000e-09
"group"
0.000000e+00
0.000000e+00
0.000000e+00
"time" 1.000000e-08
"group"
1.654361e-15
0.000000e+00
8.271806e-16
"time" 1.100000e-08
"group"
1.000000e+00
0.000000e+00
5.000000e-01
"time" 1.200000e-08
"group"
2.000000e+00
0.000000e+00
1.250000e+00
"time" 1.300000e-08
"group"
3.000000e+00
0.000000e+00
2.125000e+00
"time" 1.400000e-08
"group"
4.000000e+00
0.000000e+00
3.062500e+00
"time" 1.500000e-08
"group"
5.000000e+00
0.000000e+00
4.031250e+00
"time" 1.600000e-08
"group"
5.000000e+00
0.000000e+00
4.515625e+00
"time" 1.700000e-08
"group"
5.000000e+00
0.000000e+00
4.757813e+00
"time" 1.800000e-08
"group"
5.000000e+00
0.000000e+00
4.878906e+00
"time" 1.900000e-08
"group"
5.000000e+00
0.000000e+00
4.939453e+00
"time" 2.000000e-08
"group"
5.000000e+00
0.000000e+00
4.969727e+00
"time" 2.100000e-08
"group"
5.000000e+00
0.000000e+00
4.984863e+00
"time" 2.200000e-08
"group"
5.000000e+00
0.000000e+00
4.992432e+00
"time" 2.300000e-08
"group"
5.000000e+00
0.000000e+00
4.996216e+00
"time" 2.400000e-08
"group"
5.000000e+00
0.000000e+00
4.998108e+00
"time" 2.500000e-08
"group"
5.000000e+00
0.000000e+00
4.999054e+00
"time" 2.600000e-08
"group"
5.000000e+00
0.000000e+00
4.999527e+00
"time" 2.700000e-08
"group"
5.000000e+00
0.000000e+00
4.999763e+00
"time" 2.800000e-08
"group"
5.000000e+00
0.000000e+00
4.999882e+00
"time" 2.900000e-08
"group"
5.000000e+00
0.000000e+00
4.999941e+00
"time" 3.000000e-08
"group"
5.000000e+00
0.000000e+00
4.999970e+00
"time" 3.100000e-08
"group"
5.000000e+00
0.000000e+00
4.999985e+00
"time" 3.200000e-08
"group"
5.000000e+00
0.000000e+00
4.999993e+00
"time" 3.300000e-08
"group"
5.000000e+00
0.000000e+00
4.999996e+00
"time" 3.400000e-08
"group"
5.000000e+00
0.000000e+00
4.999998e+00
"time" 3.500000e-08
"group"
5.000000e+00
0.000000e+00
4.999999e+00
"time" 3.600000e-08
"group"
5.000000e+00
0.000000e+00
5.000000e+00
"time" 3.700000e-08
"group"
5.000000e+00
0.000000e+00
5.000000e+00
"time" 3.800000e-08
"group"
5.000000e+00
0.000000e+00
5.000000e+00
"time" 3.900000e-08
"group"
5.000000e+00
0.000000e+00
5.000000e+00
"time" 4.000000e-08
"group"
5.000000e+00
0.000000e+00
5.000000e+00
"time" 4.100000e-08
"group"
5.000000e+00
0.000000e+00
5.000000e+00
"time" 4.200000e-08
"group"
5.000000e+00
0.000000e+00
5.000000e+00
"time" 4.300000e-08
"group"
5.000000e+00
0.000000e+00
5.000000e+00
"time" 4.400000e-08
"group"
5.000000e+00
0.000000e+00
5.000000e+00
"time" 4.500000e-08
"group"
5.000000e+00
0.000000e+00
5.000000e+00
"time" 4.600000e-08
"group"
5.000000e+00
0.000000e+00
5.000000e+00
"time" 4.700000e-08
"group"
5.000000e+00
0.000000e+00
5.000000e+00
"time" 4.800000e-08
"group"
5.000000e+00
0.000000e+00
5.000000e+00
"time" 4.900000e-08
"group"
5.000000e+00
0.000000e+00
5.000000e+00
"time" 5.000000e-08
"group"
5.000000e+00
0.000000e+00
5.000000e+00
"time" 5.100000e-08
"group"
5.000000e+00
0.000000e+00
5.000000e+00
"time" 5.200000e-08
"group"
5.000000e+00
0.000000e+00
5.000000e+00
"time" 5.300000e-08
"group"
5.000000e+00
0.000000e+00
5.000000e+00
"time" 5.400000e-08
"group"
5.000000e+00
0.000000e+00
5.000000e+00
"time" 5.500000e-08
"group"
5.000000e+00
0.000000e+00
5.000000e+00
"time" 5.600000e-08
"group"
5.000000e+00
0.000000e+00
5.000000e+00
"time" 5.700000e-08
"group"
5.000000e+00
0.000000e+00
5.000000e+00
"time" 5.800000e-08
"group"
5.000000e+00
0.000000e+00
5.000000e+00
"time" 5.900000e-08
"group"
5.000000e+00
0.000000e+00
5.000000e+00
"time" 6.000000e-08
"group"
5.000000e+00
0.000000e+00
5.000000e+00
"time" 6.100000e-08
"group"
5.000000e+00
0.000000e+00
5.000000e+00
"time" 6.200000e-08
"group"
5.000000e+00
0.000000e+00
5.000000e+00
"time" 6.300000e-08
"group"
5.000000e+00
0.000000e+00
5.000000e+00
"time" 6.400000e-08
"group"
5.000000e+00
0.000000e+00
5.000000e+00
"time" 6.500000e-08
"group"
5.000000e+00
0.000000e+00
5.000000e+00
"time" 6.600000e-08
"group"
4.000000e+00
0.000000e+00
4.500000e+00
"time" 6.700000e-08
"group"
3.000000e+00
0.000000e+00
3.750000e+00
"time" 6.800000e-08
"group"
2.000000e+00
0.000000e+00
2.875000e+00
"time" 6.900000e-08
"group"
1.000000e+00
0.000000e+00
1.937500e+00
"time" 7.000000e-08
"group"
0.000000e+00
0.000000e+00
9.687500e-01
"time" 7.100000e-08
"group"
0.000000e+00
0.000000e+00
4.843750e-01
"time" 7.200000e-08
"group"
0.000000e+00
0.000000e+00
2.421875e-01
"time" 7.300000e-08
"group"
0.000000e+00
0.000000e+00
1.210937e-01
"time" 7.400000e-08
"group"
0.000000e+00
0.000000e+00
6.054687e-02
"time" 7.500000e-08
"group"
0.000000e+00
0.000000e+00
3.027344e-02
"time" 7.600000e-08
"group"
0.000000e+00
0.000000e+00
1.513672e-02
"time" 7.700000e-08
"group"
0.000000e+00
0.000000e+00
7.568359e-03
"time" 7.800000e-08
"group"
0.000000e+00
0.000000e+00
3.784180e-03
"time" 7.900000e-08
"group"
0.000000e+00
0.000000e+00
1.892090e-03
"time" 8.000000e-08
"group"
0.000000e+00
0.000000e+00
9.460449e-04
"time" 8.100000e-08
"group"
0.000000e+00
0.000000e+00
4.730225e-04
"time" 8.200000e-08
"group"
0.000000e+00
0.000000e+00
2.365112e-04
"time" 8.300000e-08
"group"
0.000000e+00
0.000000e+00
1.182556e-04
"time" 8.400000e-08
"group"
0.000000e+00
0.000000e+00
5.912781e-05
"time" 8.500000e-08
"group"
0.000000e+00
0.000000e+00
2.956390e-05
"time" 8.600000e-08
"group"
0.000000e+00
0.000000e+00
1.478195e-05
"time" 8.700000e-08
"group"
0.000000e+00
0.000000e+00
7.390976e-06
"time" 8.800000e-08
"group"
0.000000e+00
0.000000e+00
3.695488e-06
"time" 8.900000e-08
"group"
0.000000e+00
0.000000e+00
1.847744e-06
"time" 9.000000e-08
"group"
0.000000e+00
0.000000e+00
9.238720e-07
"time" 9.100000e-08
"group"
0.000000e+00
0.000000e+00
4.619360e-07
"time" 9.200000e-08
"group"
0.000000e+00
0.000000e+00
2.309680e-07
"time" 9.300000e-08
"group"
0.000000e+00
0.000000e+00
1.154840e-07
"time" 9.400000e-08
"group"
0.000000e+00
0.000000e+00
5.774200e-08
"time" 9.500000e-08
"group"
0.000000e+00
0.000000e+00
2.887100e-08
"time" 9.600000e-08
"group"
0.000000e+00
0.000000e+00
1.443550e-08
"time" 9.700000e-08
"group"
0.000000e+00
0.000000e+00
7.217750e-09
"time" 9.800000e-08
"group"
0.000000e+00
0.000000e+00
3.608875e-09
"time" 9.900000e-08
"group"
0.000000e+00
0.000000e+00
1.804437e-09
"time" 1.000000e-07
"group"
0.000000e+00
0.000000e+00
9.022187e-10
"time" 1.010000e-07
"group"
0.000000e+00
0.000000e+00
4.511094e-10
"time" 1.020000e-07
"group"
0.000000e+00
0.000000e+00
2.255547e-10
"time" 1.030000e-07
"group"
0.000000e+00
0.000000e+00
1.127773e-10
"time" 1.040000e-07
"group"
0.000000e+00
0.000000e+00
5.638867e-11
"time" 1.050000e-07
"group"
0.000000e+00
0.000000e+00
2.819434e-11
"time" 1.060000e-07
"group"
0.000000e+00
0.000000e+00
1.409717e-11
"time" 1.070000e-07
"group"
0.000000e+00
0.000000e+00
7.048584e-12
"time" 1.080000e-07
"group"
0.000000e+00
0.000000e+00
3.524292e-12
"time" 1.090000e-07
"group"
0.000000e+00
0.000000e+00
1.762146e-12
"time" 1.100000e-07
"group"
0.000000e+00
0.000000e+00
8.810730e-13
"time" 1.110000e-07
"group"
1.000000e+00
0.000000e+00
5.000000e-01
"time" 1.120000e-07
"group"
2.000000e+00
0.000000e+00
1.250000e+00
"time" 1.130000e-07
"group"
3.000000e+00
0.000000e+00
2.125000e+00
"time" 1.140000e-07
"group"
4.000000e+00
0.000000e+00
3.062500e+00
"time" 1.150000e-07
"group"
5.000000e+00
0.000000e+00
4.031250e+00
"time" 1.160000e-07
"group"
5.000000e+00
0.000000e+00
4.515625e+00
"time" 1.170000e-07
"group"
5.000000e+00
0.000000e+00
4.757812e+00
"time" 1.180000e-07
"group"
5.000000e+00
0.000000e+00
4.878906e+00
"time" 1.190000e-07
"group"
5.000000e+00
0.000000e+00
4.939453e+00
"time" 1.200000e-07
"group"
5.000000e+00
0.000000e+00
4.969727e+00
"time" 1.210000e-07
"group"
5.000000e+00
0.000000e+00
4.984863e+00
"time" 1.220000e-07
"group"
5.000000e+00
0.000000e+00
4.992432e+00
"time" 1.230000e-07
"group"
5.000000e+00
0.000000e+00
4.996216e+00
"time" 1.240000e-07
"group"
5.000000e+00
0.000000e+00
4.998108e+00
"time" 1.250000e-07
"group"
5.000000e+00
0.000000e+00
4.999054e+00
"time" 1.260000e-07
"group"
5.000000e+00
0.000000e+00
4.999527e+00
"time" 1.270000e-07
"group"
5.000000e+00
0.000000e+00
4.999763e+00
"time" 1.280000e-07
"group"
5.000000e+00
0.000000e+00
4.999882e+00
"time" 1.290000e-07
"group"
5.000000e+00
0.000000e+00
4.999941e+00
"time" 1.300000e-07
"group"
5.000000e+00
0.000000e+00
4.999970e+00
"time" 1.310000e-07
"group"
5.000000e+00
0.000000e+00
4.999985e+00
"time" 1.320000e-07
"group"
5.000000e+00
0.000000e+00
4.999993e+00
"time" 1.330000e-07
"group"
5.000000e+00
0.000000e+00
4.999996e+00
"time" 1.340000e-07
"group"
5.000000e+00
0.000000e+00
4.999998e+00
"time" 1.350000e-07
"group"
5.000000e+00
0.000000e+00
4.999999e+00
"time" 1.360000e-07
"group"
5.000000e+00
0.000000e+00
5.000000e+00
"time" 1.370000e-07
"group"
5.000000e+00
0.000000e+00
5.000000e+00
"time" 1.380000e-07
"group"
5.000000e+00
0.000000e+00
5.000000e+00
"time" 1.390000e-07
"group"
5.000000e+00
0.000000e+00
5.000000e+00
"time" 1.400000e-07
"group"
5.000000e+00
0.000000e+00
5.000000e+00
"time" 1.410000e-07
"group"
5.000000e+00
0.000000e+00
5.000000e+00
"time" 1.420000e-07
"group"
5.000000e+00
0.000000e+00
5.000000e+00
"time" 1.430000e-07
"group"
5.000000e+00
0.000000e+00
5.000000e+00
"time" 1.440000e-07
"group"
5.000000e+00
0.000000e+00
5.000000e+00
"time" 1.450000e-07
"group"
5.000000e+00
0.000000e+00
5.000000e+00
"time" 1.460000e-07
"group"
5.000000e+00
0.000000e+00
5.000000e+00
"time" 1.470000e-07
"group"
5.000000e+00
0.000000e+00
5.000000e+00
"time" 1.480000e-07
"group"
5.000000e+00
0.000000e+00
5.000000e+00
"time" 1.490000e-07
"group"
5.000000e+00
0.000000e+00
5.000000e+00
"time" 1.500000e-07
"group"
5.000000e+00
0.000000e+00
5.000000e+00
"time" 1.510000e-07
"group"
5.000000e+00
0.000000e+00
5.000000e+00
"time" 1.520000e-07
"group"
5.000000e+00
0.000000e+00
5.000000e+00
"time" 1.530000e-07
"group"
5.000000e+00
0.000000e+00
5.000000e+00
"time" 1.540000e-07
"group"
5.000000e+00
0.000000e+00
5.000000e+00
"time" 1.550000e-07
"group"
5.000000e+00
0.000000e+00
5.000000e+00
"time" 1.560000e-07
"group"
5.000000e+00
0.000000e+00
5.000000e+00
"time" 1.570000e-07
"group"
5.000000e+00
0.000000e+00
5.000000e+00
"time" 1.580000e-07
"group"
5.000000e+00
0.000000e+00
5.000000e+00
"time" 1.590000e-07
"group"
5.000000e+00
0.000000e+00
5.000000e+00
"time" 1.600000e-07
"group"
5.000000e+00
0.000000e+00
5.000000e+00
"time" 1.610000e-07
"group"
5.000000e+00
0.000000e+00
5.000000e+00
"time" 1.620000e-07
"group"
5.000000e+00
0.000000e+00
5.000000e+00
"time" 1.630000e-07
"group"
5.000000e+00
0.000000e+00
5.000000e+00
"time" 1.640000e-07
"group"
5.000000e+00
0.000000e+00
5.000000e+00
"time" 1.650000e-07
"group"
5.000000e+00
0.000000e+00
5.000000e+00
"time" 1.660000e-07
"group"
4.000000e+00
0.000000e+00
4.500000e+00
"time" 1.670000e-07
"group"
3.000000e+00
0.000000e+00
3.750000e+00
"time" 1.680000e-07
"group"
2.000000e+00
0.000000e+00
2.875000e+00
"time" 1.690000e-07
"group"
1.000000e+00
0.000000e+00
1.937500e+00
"time" 1.700000e-07
"group"
4.316547e-13
0.000000e+00
9.687500e-01
"time" 1.710000e-07
"group"
0.000000e+00
0.000000e+00
4.843750e-01
"time" 1.720000e-07
"group"
0.000000e+00
0.000000e+00
2.421875e-01
"time" 1.730000e-07
"group"
0.000000e+00
0.000000e+00
1.210938e-01
"time" 1.740000e-07
"group"
0.000000e+00
0.000000e+00
6.054688e-02
"time" 1.750000e-07
"group"
0.000000e+00
0.000000e+00
3.027344e-02
"time" 1.760000e-07
"group"
0.000000e+00
0.000000e+00
1.513672e-02
"time" 1.770000e-07
"group"
0.000000e+00
0.000000e+00
7.568359e-03
"time" 1.780000e-07
"group"
0.000000e+00
0.000000e+00
3.784180e-03
"time" 1.790000e-07
"group"
0.000000e+00
0.000000e+00
1.892090e-03
"time" 1.800000e-07
"group"
0.000000e+00
0.000000e+00
9.460449e-04
"time" 1.810000e-07
"group"
0.000000e+00
0.000000e+00
4.730225e-04
"time" 1.820000e-07
"group"
0.000000e+00
0.000000e+00
2.365112e-04
"time" 1.830000e-07
"group"
0.000000e+00
0.000000e+00
1.182556e-04
"time" 1.840000e-07
"group"
0.000000e+00
0.000000e+00
5.912781e-05
"time" 1.850000e-07
"group"
0.000000e+00
0.000000e+00
2.956390e-05
"time" 1.860000e-07
"group"
0.000000e+00
0.000000e+00
1.478195e-05
"time" 1.870000e-07
"group"
0.000000e+00
0.000000e+00
7.390976e-06
"time" 1.880000e-07
"group"
0.000000e+00
0.000000e+00
3.695488e-06
"time" 1.890000e-07
"group"
0.000000e+00
0.000000e+00
1.847744e-06
"time" 1.900000e-07
"group"
0.000000e+00
0.000000e+00
9.238720e-07
"time" 1.910000e-07
"group"
0.000000e+00
0.000000e+00
4.619360e-07
"time" 1.920000e-07
"group"
0.000000e+00
0.000000e+00
2.309680e-07
"time" 1.930000e-07
"group"
0.000000e+00
0.000000e+00
1.154840e-07
"time" 1.940000e-07
"group"
0.000000e+00
0.000000e+00
5.774200e-08
"time" 1.950000e-07
"group"
0.000000e+00
0.000000e+00
2.887100e-08
"time" 1.960000e-07
"group"
0.000000e+00
0.000000e+00
1.443550e-08
"time" 1.970000e-07
"group"
0.000000e+00
0.000000e+00
7.217750e-09
"time" 1.980000e-07
"group"
0.000000e+00
0.000000e+00
3.608875e-09
"time" 1.990000e-07
"group"
0.000000e+00
0.000000e+00
1.804437e-09
"time" 2.000000e-07
"group"
0.000000e+00
0.000000e+00
9.022187e-10
END